T380C 000:005.405   SEGGER J-Link V7.92e Log File
T380C 000:005.521   DLL Compiled: Sep 13 2023 15:39:05
T380C 000:005.524   Logging started @ 2024-01-05 09:57
T380C 000:005.527   Process: C:\Keil_v5\UV4\UV4.exe
T380C 000:005.532 - 5.529ms
T380C 000:005.537 JLINK_SetWarnOutHandler(...)
T380C 000:005.540 - 0.003ms
T380C 000:005.543 JLINK_OpenEx(...)
T380C 000:008.149   Firmware: J-Link V9 compiled May  7 2021 16:26:12
T380C 000:008.406   Firmware: J-Link V9 compiled May  7 2021 16:26:12
T380C 000:008.553   Decompressing FW timestamp took 107 us
T380C 000:016.555   Hardware: V9.40
T380C 000:016.565   S/N: 69401913
T380C 000:016.569   OEM: SEGGER
T380C 000:016.573   Feature(s): RDI, GDB, FlashDL, FlashBP, JFlash
T380C 000:017.091   Bootloader: (Could not read)
T380C 000:017.802   TELNET listener socket opened on port 19021
T380C 000:017.916   WEBSRV WEBSRV_Init(): Starting webserver thread(s)
T380C 000:018.051   WEBSRV Webserver running on local port 19080
T380C 000:018.133   Looking for J-Link GUI Server exe at: C:\Keil_v5\ARM\Segger\JLinkGUIServer.exe
T380C 000:018.241   Looking for J-Link GUI Server exe at: C:\Program Files\SEGGER\JLink_V792e\JLinkGUIServer.exe
T380C 000:018.259   Forking J-Link GUI Server: C:\Program Files\SEGGER\JLink_V792e\JLinkGUIServer.exe
T380C 000:044.317   J-Link GUI Server info: "J-Link GUI server V7.92e "
T380C 000:047.755 - 42.200ms returns "O.K."
T380C 000:047.770 JLINK_GetEmuCaps()
T380C 000:047.775 - 0.003ms returns 0xB9FF7BBF
T380C 000:047.779 JLINK_TIF_GetAvailable(...)
T380C 000:047.907 - 0.128ms
T380C 000:047.912 JLINK_SetErrorOutHandler(...)
T380C 000:047.915 - 0.003ms
T380C 000:047.934 JLINK_ExecCommand("ProjectFile = "d:\git_workstation\edge-oasis-bridgeware-gd-v2-freertos\Template\Keil5_project\JLinkSettings.ini"", ...). 
T380C 000:060.461   Ref file found at: C:\Keil_v5\ARM\Segger\JLinkDevices.ref
T380C 000:060.530   REF file references invalid XML file: C:\Program Files\SEGGER\JLink_V792e\JLinkDevices.xml
T380C 000:061.033   Device "GD32E103RB" selected.
T380C 000:061.465 - 13.531ms returns 0x00
T380C 000:061.575 JLINK_ExecCommand("Device = GD32F103RC", ...). 
T380C 000:061.718   Device "GD32E103RB" selected.
T380C 000:062.002 - 0.421ms returns 0x00
T380C 000:062.009 JLINK_ExecCommand("DisableConnectionTimeout", ...). 
T380C 000:062.025 - 0.001ms returns 0x01
T380C 000:062.030 JLINK_GetHardwareVersion()
T380C 000:062.037 - 0.004ms returns 94000
T380C 000:062.046 JLINK_GetDLLVersion()
T380C 000:062.049 - 0.002ms returns 79205
T380C 000:062.053 JLINK_GetOEMString(...)
T380C 000:062.057 JLINK_GetFirmwareString(...)
T380C 000:062.060 - 0.003ms
T380C 000:062.723 JLINK_GetDLLVersion()
T380C 000:062.728 - 0.004ms returns 79205
T380C 000:062.732 JLINK_GetCompileDateTime()
T380C 000:062.735 - 0.002ms
T380C 000:062.811 JLINK_GetFirmwareString(...)
T380C 000:062.815 - 0.003ms
T380C 000:062.881 JLINK_GetHardwareVersion()
T380C 000:062.884 - 0.003ms returns 94000
T380C 000:062.958 JLINK_GetSN()
T380C 000:062.962 - 0.003ms returns 69401913
T380C 000:063.027 JLINK_GetOEMString(...)
T380C 000:063.214 JLINK_TIF_Select(JLINKARM_TIF_SWD)
T380C 000:063.688 - 0.474ms returns 0x00
T380C 000:063.695 JLINK_HasError()
T380C 000:063.710 JLINK_SetSpeed(5000)
T380C 000:063.811 - 0.101ms
T380C 000:063.815 JLINK_GetId()
T380C 000:064.505   Found SW-DP with ID 0x1BA01477
T380C 000:067.182   DPIDR: 0x1BA01477
T380C 000:067.252   CoreSight SoC-400 or earlier
T380C 000:067.318   Scanning AP map to find all available APs
T380C 000:068.499   AP[1]: Stopped AP scan as end of AP map has been reached
T380C 000:068.645   AP[0]: AHB-AP (IDR: 0x24770011)
T380C 000:068.766   Iterating through AP map to find AHB-AP to use
T380C 000:069.634   AP[0]: Core found
T380C 000:069.714   AP[0]: AHB-AP ROM base: 0xE00FF000
T380C 000:070.201   CPUID register: 0x412FC231. Implementer code: 0x41 (ARM)
T380C 000:070.271   Found Cortex-M3 r2p1, Little endian.
T380C 000:070.350   
  ***** Warning: 
T380C 000:070.354   Identified core does not match configuration. (Found: Cortex-M3, Configured: Cortex-M4)
T380C 000:070.739   -- Max. mem block: 0x00010E60
T380C 000:071.055   CPU_ReadMem(4 bytes @ 0xE000EDF0)
T380C 000:071.297   CPU_WriteMem(4 bytes @ 0xE000EDF0)
T380C 000:071.539   CPU_ReadMem(4 bytes @ 0xE0002000)
T380C 000:071.866   FPUnit: 6 code (BP) slots and 2 literal slots
T380C 000:071.871   CPU_ReadMem(4 bytes @ 0xE000EDFC)
T380C 000:072.112   CPU_WriteMem(4 bytes @ 0xE000EDFC)
T380C 000:072.377   CPU_ReadMem(4 bytes @ 0xE0001000)
T380C 000:072.628   CPU_WriteMem(4 bytes @ 0xE0001000)
T380C 000:072.959   CPU_ReadMem(4 bytes @ 0xE000ED88)
T380C 000:073.211   CPU_WriteMem(4 bytes @ 0xE000ED88)
T380C 000:073.460   CPU_ReadMem(4 bytes @ 0xE000ED88)
T380C 000:073.741   CPU_WriteMem(4 bytes @ 0xE000ED88)
T380C 000:074.097   CoreSight components:
T380C 000:074.165   ROMTbl[0] @ E00FF000
T380C 000:074.170   CPU_ReadMem(64 bytes @ 0xE00FF000)
T380C 000:074.831   CPU_ReadMem(32 bytes @ 0xE000EFE0)
T380C 000:075.711   [0][0]: E000E000 CID B105E00D PID 000BB000 SCS
T380C 000:075.720   CPU_ReadMem(32 bytes @ 0xE0001FE0)
T380C 000:077.348   [0][1]: E0001000 CID B105E00D PID 003BB002 DWT
T380C 000:077.372   CPU_ReadMem(32 bytes @ 0xE0002FE0)
T380C 000:077.878   [0][2]: E0002000 CID B105E00D PID 002BB003 FPB
T380C 000:077.886   CPU_ReadMem(32 bytes @ 0xE0000FE0)
T380C 000:078.374   [0][3]: E0000000 CID B105E00D PID 003BB001 ITM
T380C 000:078.380   CPU_ReadMem(32 bytes @ 0xE0040FE0)
T380C 000:078.899   [0][4]: E0040000 CID B105900D PID 003BB923 TPIU-Lite
T380C 000:078.905   CPU_ReadMem(32 bytes @ 0xE0041FE0)
T380C 000:079.444   [0][5]: E0041000 CID B105900D PID 003BB924 ETM-M3
T380C 000:079.644 - 15.828ms returns 0x1BA01477
T380C 000:079.652 JLINK_GetDLLVersion()
T380C 000:079.655 - 0.002ms returns 79205
T380C 000:079.679 JLINK_CORE_GetFound()
T380C 000:079.682 - 0.003ms returns 0x30000FF
T380C 000:079.686 JLINK_GetDebugInfo(0x100 = JLINKARM_ROM_TABLE_ADDR_INDEX)
T380C 000:079.689   Value=0xE00FF000
T380C 000:079.693 - 0.007ms returns 0
T380C 000:079.759 JLINK_GetDebugInfo(0x100 = JLINKARM_ROM_TABLE_ADDR_INDEX)
T380C 000:079.762   Value=0xE00FF000
T380C 000:079.766 - 0.006ms returns 0
T380C 000:079.769 JLINK_GetDebugInfo(0x101 = JLINKARM_DEBUG_INFO_ETM_ADDR_INDEX)
T380C 000:079.772   Value=0xE0041000
T380C 000:079.776 - 0.006ms returns 0
T380C 000:079.779 JLINK_ReadMemEx(0xE0041FD0, 0x20 Bytes, Flags = 0x02000004)
T380C 000:079.794   CPU_ReadMem(32 bytes @ 0xE0041FD0)
T380C 000:080.259   Data:  04 00 00 00 00 00 00 00 00 00 00 00 00 00 00 00 ...
T380C 000:080.283 - 0.502ms returns 32 (0x20)
T380C 000:080.304 JLINK_GetDebugInfo(0x102 = JLINKARM_DEBUG_INFO_MTB_ADDR_INDEX)
T380C 000:080.315   Value=0x00000000
T380C 000:080.319 - 0.015ms returns 0
T380C 000:080.322 JLINK_GetDebugInfo(0x103 = JLINKARM_DEBUG_INFO_TPIU_ADDR_INDEX)
T380C 000:080.325   Value=0xE0040000
T380C 000:080.329 - 0.006ms returns 0
T380C 000:080.333 JLINK_GetDebugInfo(0x104 = JLINKARM_DEBUG_INFO_ITM_ADDR_INDEX)
T380C 000:080.336   Value=0xE0000000
T380C 000:080.341 - 0.008ms returns 0
T380C 000:080.345 JLINK_GetDebugInfo(0x105 = JLINKARM_DEBUG_INFO_DWT_ADDR_INDEX)
T380C 000:080.348   Value=0xE0001000
T380C 000:080.352 - 0.007ms returns 0
T380C 000:080.356 JLINK_GetDebugInfo(0x106 = JLINKARM_DEBUG_INFO_FPB_ADDR_INDEX)
T380C 000:080.358   Value=0xE0002000
T380C 000:080.362 - 0.006ms returns 0
T380C 000:080.366 JLINK_GetDebugInfo(0x107 = JLINKARM_DEBUG_INFO_NVIC_ADDR_INDEX)
T380C 000:080.368   Value=0xE000E000
T380C 000:080.372 - 0.006ms returns 0
T380C 000:080.375 JLINK_GetDebugInfo(0x10C = JLINKARM_DEBUG_INFO_DBG_ADDR_INDEX)
T380C 000:080.378   Value=0xE000EDF0
T380C 000:080.382 - 0.006ms returns 0
T380C 000:080.388 JLINK_GetDebugInfo(0x01 = Unknown)
T380C 000:080.391   Value=0x00000000
T380C 000:080.394 - 0.009ms returns 0
T380C 000:080.401 JLINK_ReadMemU32(0xE000ED00, 0x1 Items)
T380C 000:080.405   CPU_ReadMem(4 bytes @ 0xE000ED00)
T380C 000:080.645   Data:  31 C2 2F 41
T380C 000:080.649   Debug reg: CPUID
T380C 000:080.653 - 0.252ms returns 1 (0x1)
T380C 000:080.657 JLINK_GetDebugInfo(0x10F = JLINKARM_DEBUG_INFO_HAS_CORTEX_M_SECURITY_EXT_INDEX)
T380C 000:080.662   Value=0x00000000
T380C 000:080.666 - 0.009ms returns 0
T380C 000:080.670 JLINK_HasError()
T380C 000:080.674 JLINK_SetResetType(JLINKARM_CM3_RESET_TYPE_NORMAL)
T380C 000:080.677 - 0.002ms returns JLINKARM_CM3_RESET_TYPE_NORMAL
T380C 000:080.680 JLINK_Reset()
T380C 000:080.690   CPU is running
T380C 000:080.694   CPU_WriteMem(4 bytes @ 0xE000EDF0)
T380C 000:080.938   CPU is running
T380C 000:080.942   CPU_WriteMem(4 bytes @ 0xE000EDFC)
T380C 000:081.303   Reset: Halt core after reset via DEMCR.VC_CORERESET.
T380C 000:081.700   Reset: Reset device via AIRCR.SYSRESETREQ.
T380C 000:081.705   CPU is running
T380C 000:081.710   CPU_WriteMem(4 bytes @ 0xE000ED0C)
T380C 000:133.774   CPU_ReadMem(4 bytes @ 0xE000EDF0)
T380C 000:134.053   CPU_ReadMem(4 bytes @ 0xE000EDF0)
T380C 000:136.766   CPU_WriteMem(4 bytes @ 0xE000EDFC)
T380C 000:142.702   CPU_ReadMem(4 bytes @ 0xE000EDF0)
T380C 000:145.410   CPU_WriteMem(4 bytes @ 0xE0002000)
T380C 000:145.741   CPU_ReadMem(4 bytes @ 0xE000EDFC)
T380C 000:145.997   CPU_ReadMem(4 bytes @ 0xE0001000)
T380C 000:146.250 - 65.569ms
T380C 000:146.259 JLINK_Halt()
T380C 000:146.262 - 0.003ms returns 0x00
T380C 000:146.290 JLINK_ReadMemU32(0xE000EDF0, 0x1 Items)
T380C 000:146.299   CPU_ReadMem(4 bytes @ 0xE000EDF0)
T380C 000:146.546   Data:  03 00 03 00
T380C 000:146.550   Debug reg: DHCSR
T380C 000:146.554 - 0.264ms returns 1 (0x1)
T380C 000:146.567 JLINK_WriteU32_64(0xE000EDF0, 0xA05F0003)
T380C 000:146.570   Debug reg: DHCSR
T380C 000:146.749   CPU_WriteMem(4 bytes @ 0xE000EDF0)
T380C 000:147.049 - 0.481ms returns 0 (0x00000000)
T380C 000:147.054 JLINK_WriteU32_64(0xE000EDFC, 0x01000000)
T380C 000:147.057   Debug reg: DEMCR
T380C 000:147.066   CPU_WriteMem(4 bytes @ 0xE000EDFC)
T380C 000:147.333 - 0.278ms returns 0 (0x00000000)
T380C 000:147.670 JLINK_GetHWStatus(...)
T380C 000:147.796 - 0.128ms returns 0
T380C 000:148.422 JLINK_GetNumBPUnits(Type = 0xFFFFFF00)
T380C 000:148.426 - 0.004ms returns 0x06
T380C 000:148.429 JLINK_GetNumBPUnits(Type = 0xF0)
T380C 000:148.432 - 0.002ms returns 0x2000
T380C 000:148.435 JLINK_GetNumWPUnits()
T380C 000:148.438 - 0.002ms returns 4
T380C 000:148.681 JLINK_GetSpeed()
T380C 000:148.685 - 0.003ms returns 4000
T380C 000:148.804 JLINK_ReadMemU32(0xE000E004, 0x1 Items)
T380C 000:148.811   CPU_ReadMem(4 bytes @ 0xE000E004)
T380C 000:149.056   Data:  02 00 00 00
T380C 000:149.061 - 0.257ms returns 1 (0x1)
T380C 000:149.065 JLINK_ReadMemU32(0xE000E004, 0x1 Items)
T380C 000:149.069   CPU_ReadMem(4 bytes @ 0xE000E004)
T380C 000:149.312   Data:  02 00 00 00
T380C 000:149.316 - 0.251ms returns 1 (0x1)
T380C 000:149.320 JLINK_WriteMemEx(0xE0001000, 0x0000001C Bytes, Flags = 0x02000004)
T380C 000:149.323   Data:  01 00 00 00 00 00 00 00 00 00 00 00 00 00 00 00 ...
T380C 000:149.332   CPU_WriteMem(28 bytes @ 0xE0001000)
T380C 000:149.739 - 0.418ms returns 0x1C
T380C 000:149.749 JLINK_Halt()
T380C 000:149.752 - 0.003ms returns 0x00
T380C 000:149.756 JLINK_IsHalted()
T380C 000:149.759 - 0.003ms returns TRUE
T380C 000:150.325 JLINK_WriteMem(0x20000000, 0x13C Bytes, ...)
T380C 000:150.330   Data:  00 BE 0A E0 0D 78 2D 06 68 40 08 24 40 00 00 D3 ...
T380C 000:150.501   CPU_WriteMem(316 bytes @ 0x20000000)
T380C 000:152.415 - 2.089ms returns 0x13C
T380C 000:152.447 JLINK_HasError()
T380C 000:152.453 JLINK_WriteReg(R0, 0x08000000)
T380C 000:152.464 - 0.011ms returns 0
T380C 000:152.469 JLINK_WriteReg(R1, 0x00B71B00)
T380C 000:152.473 - 0.004ms returns 0
T380C 000:152.478 JLINK_WriteReg(R2, 0x00000001)
T380C 000:152.496 - 0.018ms returns 0
T380C 000:152.501 JLINK_WriteReg(R3, 0x00000000)
T380C 000:152.505 - 0.004ms returns 0
T380C 000:152.510 JLINK_WriteReg(R4, 0x00000000)
T380C 000:152.515 - 0.004ms returns 0
T380C 000:152.520 JLINK_WriteReg(R5, 0x00000000)
T380C 000:152.524 - 0.004ms returns 0
T380C 000:152.529 JLINK_WriteReg(R6, 0x00000000)
T380C 000:152.533 - 0.004ms returns 0
T380C 000:152.538 JLINK_WriteReg(R7, 0x00000000)
T380C 000:152.545 - 0.007ms returns 0
T380C 000:152.558 JLINK_WriteReg(R8, 0x00000000)
T380C 000:152.562 - 0.012ms returns 0
T380C 000:152.566 JLINK_WriteReg(R9, 0x20000134)
T380C 000:152.569 - 0.003ms returns 0
T380C 000:152.573 JLINK_WriteReg(R10, 0x00000000)
T380C 000:152.576 - 0.003ms returns 0
T380C 000:152.579 JLINK_WriteReg(R11, 0x00000000)
T380C 000:152.582 - 0.003ms returns 0
T380C 000:152.586 JLINK_WriteReg(R12, 0x00000000)
T380C 000:152.589 - 0.003ms returns 0
T380C 000:152.592 JLINK_WriteReg(R13 (SP), 0x20001000)
T380C 000:152.596 - 0.003ms returns 0
T380C 000:152.600 JLINK_WriteReg(R14, 0x20000001)
T380C 000:152.603 - 0.003ms returns 0
T380C 000:152.610 JLINK_WriteReg(R15 (PC), 0x20000038)
T380C 000:152.613 - 0.006ms returns 0
T380C 000:152.618 JLINK_WriteReg(XPSR, 0x01000000)
T380C 000:152.622 - 0.004ms returns 0
T380C 000:152.627 JLINK_WriteReg(MSP, 0x20001000)
T380C 000:152.630 - 0.003ms returns 0
T380C 000:152.633 JLINK_WriteReg(PSP, 0x20001000)
T380C 000:152.640 - 0.006ms returns 0
T380C 000:152.644 JLINK_WriteReg(CFBP, 0x00000000)
T380C 000:152.647 - 0.003ms returns 0
T380C 000:152.651 JLINK_SetBPEx(Addr = 0x20000000, Type = 0xFFFFFFF2)
T380C 000:152.660   CPU_ReadMem(2 bytes @ 0x20000000)
T380C 000:152.944 - 0.292ms returns 0x00000001
T380C 000:152.951 JLINK_Go()
T380C 000:152.957   CPU_WriteMem(2 bytes @ 0x20000000)
T380C 000:153.253   CPU_ReadMem(4 bytes @ 0xE0001000)
T380C 000:153.498   CPU_WriteMem(4 bytes @ 0xE0002008)
T380C 000:153.503   CPU_WriteMem(4 bytes @ 0xE000200C)
T380C 000:153.507   CPU_WriteMem(4 bytes @ 0xE0002010)
T380C 000:153.511   CPU_WriteMem(4 bytes @ 0xE0002014)
T380C 000:153.515   CPU_WriteMem(4 bytes @ 0xE0002018)
T380C 000:153.519   CPU_WriteMem(4 bytes @ 0xE000201C)
T380C 000:154.814   CPU_WriteMem(4 bytes @ 0xE0001004)
T380C 000:157.699   Memory map 'after startup completion point' is active
T380C 000:157.707 - 4.756ms
T380C 000:157.715 JLINK_IsHalted()
T380C 000:160.160   CPU_ReadMem(2 bytes @ 0x20000000)
T380C 000:160.427 - 2.711ms returns TRUE
T380C 000:160.442 JLINK_ReadReg(R15 (PC))
T380C 000:160.450 - 0.007ms returns 0x20000000
T380C 000:160.454 JLINK_ClrBPEx(BPHandle = 0x00000001)
T380C 000:160.459 - 0.004ms returns 0x00
T380C 000:160.464 JLINK_ReadReg(R0)
T380C 000:160.468 - 0.004ms returns 0x00000000
T380C 000:160.495 JLINK_HasError()
T380C 000:160.500 JLINK_WriteReg(R0, 0x08002000)
T380C 000:160.505 - 0.004ms returns 0
T380C 000:160.509 JLINK_WriteReg(R1, 0x00000800)
T380C 000:160.512 - 0.003ms returns 0
T380C 000:160.517 JLINK_WriteReg(R2, 0x000000FF)
T380C 000:160.520 - 0.003ms returns 0
T380C 000:160.525 JLINK_WriteReg(R3, 0x00000000)
T380C 000:160.528 - 0.003ms returns 0
T380C 000:160.532 JLINK_WriteReg(R4, 0x00000000)
T380C 000:160.536 - 0.003ms returns 0
T380C 000:160.540 JLINK_WriteReg(R5, 0x00000000)
T380C 000:160.543 - 0.003ms returns 0
T380C 000:160.547 JLINK_WriteReg(R6, 0x00000000)
T380C 000:160.551 - 0.003ms returns 0
T380C 000:160.555 JLINK_WriteReg(R7, 0x00000000)
T380C 000:160.558 - 0.003ms returns 0
T380C 000:160.563 JLINK_WriteReg(R8, 0x00000000)
T380C 000:160.566 - 0.003ms returns 0
T380C 000:160.570 JLINK_WriteReg(R9, 0x20000134)
T380C 000:160.574 - 0.003ms returns 0
T380C 000:160.578 JLINK_WriteReg(R10, 0x00000000)
T380C 000:160.582 - 0.004ms returns 0
T380C 000:160.586 JLINK_WriteReg(R11, 0x00000000)
T380C 000:160.590 - 0.003ms returns 0
T380C 000:160.594 JLINK_WriteReg(R12, 0x00000000)
T380C 000:160.598 - 0.003ms returns 0
T380C 000:160.602 JLINK_WriteReg(R13 (SP), 0x20001000)
T380C 000:160.606 - 0.004ms returns 0
T380C 000:160.610 JLINK_WriteReg(R14, 0x20000001)
T380C 000:160.614 - 0.003ms returns 0
T380C 000:160.618 JLINK_WriteReg(R15 (PC), 0x20000020)
T380C 000:160.622 - 0.004ms returns 0
T380C 000:160.627 JLINK_WriteReg(XPSR, 0x01000000)
T380C 000:160.631 - 0.004ms returns 0
T380C 000:160.635 JLINK_WriteReg(MSP, 0x20001000)
T380C 000:160.639 - 0.004ms returns 0
T380C 000:160.643 JLINK_WriteReg(PSP, 0x20001000)
T380C 000:160.647 - 0.003ms returns 0
T380C 000:160.700 JLINK_WriteReg(CFBP, 0x00000000)
T380C 000:160.704 - 0.003ms returns 0
T380C 000:160.708 JLINK_SetBPEx(Addr = 0x20000000, Type = 0xFFFFFFF2)
T380C 000:160.713 - 0.004ms returns 0x00000002
T380C 000:160.717 JLINK_Go()
T380C 000:160.727   CPU_ReadMem(4 bytes @ 0xE0001000)
T380C 000:163.512 - 2.793ms
T380C 000:163.532 JLINK_IsHalted()
T380C 000:166.049   CPU_ReadMem(2 bytes @ 0x20000000)
T380C 000:166.347 - 2.814ms returns TRUE
T380C 000:166.356 JLINK_ReadReg(R15 (PC))
T380C 000:166.361 - 0.004ms returns 0x20000000
T380C 000:166.365 JLINK_ClrBPEx(BPHandle = 0x00000002)
T380C 000:166.368 - 0.003ms returns 0x00
T380C 000:166.371 JLINK_ReadReg(R0)
T380C 000:166.374 - 0.003ms returns 0x00000001
T380C 000:166.378 JLINK_HasError()
T380C 000:166.382 JLINK_WriteReg(R0, 0x08002000)
T380C 000:166.385 - 0.003ms returns 0
T380C 000:166.389 JLINK_WriteReg(R1, 0x00000800)
T380C 000:166.392 - 0.003ms returns 0
T380C 000:166.395 JLINK_WriteReg(R2, 0x000000FF)
T380C 000:166.398 - 0.002ms returns 0
T380C 000:166.401 JLINK_WriteReg(R3, 0x00000000)
T380C 000:166.404 - 0.002ms returns 0
T380C 000:166.407 JLINK_WriteReg(R4, 0x00000000)
T380C 000:166.410 - 0.002ms returns 0
T380C 000:166.413 JLINK_WriteReg(R5, 0x00000000)
T380C 000:166.416 - 0.002ms returns 0
T380C 000:166.420 JLINK_WriteReg(R6, 0x00000000)
T380C 000:166.423 - 0.002ms returns 0
T380C 000:166.426 JLINK_WriteReg(R7, 0x00000000)
T380C 000:166.429 - 0.002ms returns 0
T380C 000:166.432 JLINK_WriteReg(R8, 0x00000000)
T380C 000:166.435 - 0.002ms returns 0
T380C 000:166.438 JLINK_WriteReg(R9, 0x20000134)
T380C 000:166.441 - 0.002ms returns 0
T380C 000:166.444 JLINK_WriteReg(R10, 0x00000000)
T380C 000:166.447 - 0.002ms returns 0
T380C 000:166.450 JLINK_WriteReg(R11, 0x00000000)
T380C 000:166.453 - 0.002ms returns 0
T380C 000:166.457 JLINK_WriteReg(R12, 0x00000000)
T380C 000:166.459 - 0.002ms returns 0
T380C 000:166.463 JLINK_WriteReg(R13 (SP), 0x20001000)
T380C 000:166.466 - 0.003ms returns 0
T380C 000:166.469 JLINK_WriteReg(R14, 0x20000001)
T380C 000:166.472 - 0.002ms returns 0
T380C 000:166.476 JLINK_WriteReg(R15 (PC), 0x200000A8)
T380C 000:166.478 - 0.003ms returns 0
T380C 000:166.482 JLINK_WriteReg(XPSR, 0x01000000)
T380C 000:166.485 - 0.003ms returns 0
T380C 000:166.488 JLINK_WriteReg(MSP, 0x20001000)
T380C 000:166.491 - 0.002ms returns 0
T380C 000:166.494 JLINK_WriteReg(PSP, 0x20001000)
T380C 000:166.497 - 0.002ms returns 0
T380C 000:166.500 JLINK_WriteReg(CFBP, 0x00000000)
T380C 000:166.503 - 0.002ms returns 0
T380C 000:166.507 JLINK_SetBPEx(Addr = 0x20000000, Type = 0xFFFFFFF2)
T380C 000:166.510 - 0.003ms returns 0x00000003
T380C 000:166.513 JLINK_Go()
T380C 000:166.520   CPU_ReadMem(4 bytes @ 0xE0001000)
T380C 000:169.529 - 3.015ms
T380C 000:169.538 JLINK_IsHalted()
T380C 000:169.793 - 0.254ms returns FALSE
T380C 000:169.797 JLINK_HasError()
T380C 000:173.795 JLINK_IsHalted()
T380C 000:174.049 - 0.254ms returns FALSE
T380C 000:174.057 JLINK_HasError()
T380C 000:176.797 JLINK_IsHalted()
T380C 000:177.065 - 0.268ms returns FALSE
T380C 000:177.075 JLINK_HasError()
T380C 000:180.796 JLINK_IsHalted()
T380C 000:181.077 - 0.280ms returns FALSE
T380C 000:181.086 JLINK_HasError()
T380C 000:182.796 JLINK_IsHalted()
T380C 000:183.143 - 0.346ms returns FALSE
T380C 000:183.153 JLINK_HasError()
T380C 000:184.793 JLINK_IsHalted()
T380C 000:185.043 - 0.249ms returns FALSE
T380C 000:185.048 JLINK_HasError()
T380C 000:186.820 JLINK_IsHalted()
T380C 000:187.084 - 0.265ms returns FALSE
T380C 000:187.092 JLINK_HasError()
T380C 000:188.794 JLINK_IsHalted()
T380C 000:189.053 - 0.258ms returns FALSE
T380C 000:189.062 JLINK_HasError()
T380C 000:190.795 JLINK_IsHalted()
T380C 000:191.051 - 0.255ms returns FALSE
T380C 000:191.061 JLINK_HasError()
T380C 000:192.811 JLINK_IsHalted()
T380C 000:193.078 - 0.266ms returns FALSE
T380C 000:193.083 JLINK_HasError()
T380C 000:194.806 JLINK_IsHalted()
T380C 000:195.106 - 0.299ms returns FALSE
T380C 000:195.112 JLINK_HasError()
T380C 000:196.805 JLINK_IsHalted()
T380C 000:197.093 - 0.288ms returns FALSE
T380C 000:197.097 JLINK_HasError()
T380C 000:198.798 JLINK_IsHalted()
T380C 000:199.133 - 0.334ms returns FALSE
T380C 000:199.142 JLINK_HasError()
T380C 000:200.794 JLINK_IsHalted()
T380C 000:201.048 - 0.253ms returns FALSE
T380C 000:201.059 JLINK_HasError()
T380C 000:202.810 JLINK_IsHalted()
T380C 000:203.086 - 0.277ms returns FALSE
T380C 000:203.095 JLINK_HasError()
T380C 000:204.797 JLINK_IsHalted()
T380C 000:205.048 - 0.250ms returns FALSE
T380C 000:205.053 JLINK_HasError()
T380C 000:206.802 JLINK_IsHalted()
T380C 000:209.470   CPU_ReadMem(2 bytes @ 0x20000000)
T380C 000:209.776 - 2.973ms returns TRUE
T380C 000:209.792 JLINK_ReadReg(R15 (PC))
T380C 000:209.802 - 0.009ms returns 0x20000000
T380C 000:209.806 JLINK_ClrBPEx(BPHandle = 0x00000003)
T380C 000:209.810 - 0.003ms returns 0x00
T380C 000:209.814 JLINK_ReadReg(R0)
T380C 000:209.817 - 0.003ms returns 0x00000000
T380C 000:209.870 JLINK_HasError()
T380C 000:209.874 JLINK_WriteReg(R0, 0x08002800)
T380C 000:209.878 - 0.003ms returns 0
T380C 000:209.881 JLINK_WriteReg(R1, 0x00000800)
T380C 000:209.884 - 0.002ms returns 0
T380C 000:209.887 JLINK_WriteReg(R2, 0x000000FF)
T380C 000:209.890 - 0.002ms returns 0
T380C 000:209.894 JLINK_WriteReg(R3, 0x00000000)
T380C 000:209.896 - 0.002ms returns 0
T380C 000:209.900 JLINK_WriteReg(R4, 0x00000000)
T380C 000:209.903 - 0.002ms returns 0
T380C 000:209.906 JLINK_WriteReg(R5, 0x00000000)
T380C 000:209.909 - 0.002ms returns 0
T380C 000:209.912 JLINK_WriteReg(R6, 0x00000000)
T380C 000:209.915 - 0.002ms returns 0
T380C 000:209.918 JLINK_WriteReg(R7, 0x00000000)
T380C 000:209.921 - 0.002ms returns 0
T380C 000:209.924 JLINK_WriteReg(R8, 0x00000000)
T380C 000:209.927 - 0.002ms returns 0
T380C 000:209.930 JLINK_WriteReg(R9, 0x20000134)
T380C 000:209.933 - 0.002ms returns 0
T380C 000:209.936 JLINK_WriteReg(R10, 0x00000000)
T380C 000:209.939 - 0.003ms returns 0
T380C 000:209.943 JLINK_WriteReg(R11, 0x00000000)
T380C 000:209.945 - 0.002ms returns 0
T380C 000:209.949 JLINK_WriteReg(R12, 0x00000000)
T380C 000:209.952 - 0.002ms returns 0
T380C 000:209.955 JLINK_WriteReg(R13 (SP), 0x20001000)
T380C 000:209.958 - 0.003ms returns 0
T380C 000:209.962 JLINK_WriteReg(R14, 0x20000001)
T380C 000:209.964 - 0.002ms returns 0
T380C 000:209.968 JLINK_WriteReg(R15 (PC), 0x20000020)
T380C 000:209.971 - 0.003ms returns 0
T380C 000:209.974 JLINK_WriteReg(XPSR, 0x01000000)
T380C 000:209.977 - 0.003ms returns 0
T380C 000:209.980 JLINK_WriteReg(MSP, 0x20001000)
T380C 000:209.983 - 0.002ms returns 0
T380C 000:209.986 JLINK_WriteReg(PSP, 0x20001000)
T380C 000:209.989 - 0.003ms returns 0
T380C 000:209.992 JLINK_WriteReg(CFBP, 0x00000000)
T380C 000:209.995 - 0.002ms returns 0
T380C 000:209.999 JLINK_SetBPEx(Addr = 0x20000000, Type = 0xFFFFFFF2)
T380C 000:210.002 - 0.003ms returns 0x00000004
T380C 000:210.006 JLINK_Go()
T380C 000:210.014   CPU_ReadMem(4 bytes @ 0xE0001000)
T380C 000:212.748 - 2.741ms
T380C 000:212.759 JLINK_IsHalted()
T380C 000:215.232   CPU_ReadMem(2 bytes @ 0x20000000)
T380C 000:215.515 - 2.756ms returns TRUE
T380C 000:215.524 JLINK_ReadReg(R15 (PC))
T380C 000:215.529 - 0.005ms returns 0x20000000
T380C 000:215.532 JLINK_ClrBPEx(BPHandle = 0x00000004)
T380C 000:215.536 - 0.003ms returns 0x00
T380C 000:215.539 JLINK_ReadReg(R0)
T380C 000:215.542 - 0.003ms returns 0x00000001
T380C 000:215.546 JLINK_HasError()
T380C 000:215.550 JLINK_WriteReg(R0, 0x08002800)
T380C 000:215.553 - 0.003ms returns 0
T380C 000:215.557 JLINK_WriteReg(R1, 0x00000800)
T380C 000:215.560 - 0.002ms returns 0
T380C 000:215.563 JLINK_WriteReg(R2, 0x000000FF)
T380C 000:215.566 - 0.002ms returns 0
T380C 000:215.569 JLINK_WriteReg(R3, 0x00000000)
T380C 000:215.572 - 0.002ms returns 0
T380C 000:215.575 JLINK_WriteReg(R4, 0x00000000)
T380C 000:215.578 - 0.002ms returns 0
T380C 000:215.581 JLINK_WriteReg(R5, 0x00000000)
T380C 000:215.584 - 0.002ms returns 0
T380C 000:215.587 JLINK_WriteReg(R6, 0x00000000)
T380C 000:215.590 - 0.002ms returns 0
T380C 000:215.596 JLINK_WriteReg(R7, 0x00000000)
T380C 000:215.599 - 0.003ms returns 0
T380C 000:215.603 JLINK_WriteReg(R8, 0x00000000)
T380C 000:215.606 - 0.002ms returns 0
T380C 000:215.609 JLINK_WriteReg(R9, 0x20000134)
T380C 000:215.612 - 0.002ms returns 0
T380C 000:215.615 JLINK_WriteReg(R10, 0x00000000)
T380C 000:215.618 - 0.003ms returns 0
T380C 000:215.621 JLINK_WriteReg(R11, 0x00000000)
T380C 000:215.624 - 0.002ms returns 0
T380C 000:215.628 JLINK_WriteReg(R12, 0x00000000)
T380C 000:215.630 - 0.002ms returns 0
T380C 000:215.634 JLINK_WriteReg(R13 (SP), 0x20001000)
T380C 000:215.637 - 0.003ms returns 0
T380C 000:215.640 JLINK_WriteReg(R14, 0x20000001)
T380C 000:215.643 - 0.002ms returns 0
T380C 000:215.646 JLINK_WriteReg(R15 (PC), 0x200000A8)
T380C 000:215.649 - 0.002ms returns 0
T380C 000:215.652 JLINK_WriteReg(XPSR, 0x01000000)
T380C 000:215.655 - 0.002ms returns 0
T380C 000:215.658 JLINK_WriteReg(MSP, 0x20001000)
T380C 000:215.661 - 0.002ms returns 0
T380C 000:215.665 JLINK_WriteReg(PSP, 0x20001000)
T380C 000:215.667 - 0.002ms returns 0
T380C 000:215.671 JLINK_WriteReg(CFBP, 0x00000000)
T380C 000:215.674 - 0.002ms returns 0
T380C 000:215.677 JLINK_SetBPEx(Addr = 0x20000000, Type = 0xFFFFFFF2)
T380C 000:215.680 - 0.003ms returns 0x00000005
T380C 000:215.684 JLINK_Go()
T380C 000:215.690   CPU_ReadMem(4 bytes @ 0xE0001000)
T380C 000:218.531 - 2.847ms
T380C 000:218.541 JLINK_IsHalted()
T380C 000:218.796 - 0.254ms returns FALSE
T380C 000:218.804 JLINK_HasError()
T380C 000:220.794 JLINK_IsHalted()
T380C 000:221.048 - 0.254ms returns FALSE
T380C 000:221.053 JLINK_HasError()
T380C 000:222.796 JLINK_IsHalted()
T380C 000:223.047 - 0.250ms returns FALSE
T380C 000:223.059 JLINK_HasError()
T380C 000:224.793 JLINK_IsHalted()
T380C 000:225.032 - 0.238ms returns FALSE
T380C 000:225.037 JLINK_HasError()
T380C 000:226.818 JLINK_IsHalted()
T380C 000:227.084 - 0.267ms returns FALSE
T380C 000:227.092 JLINK_HasError()
T380C 000:228.800 JLINK_IsHalted()
T380C 000:229.115 - 0.314ms returns FALSE
T380C 000:229.124 JLINK_HasError()
T380C 000:231.089 JLINK_IsHalted()
T380C 000:231.360 - 0.271ms returns FALSE
T380C 000:231.365 JLINK_HasError()
T380C 000:233.071 JLINK_IsHalted()
T380C 000:233.327 - 0.255ms returns FALSE
T380C 000:233.339 JLINK_HasError()
T380C 000:235.086 JLINK_IsHalted()
T380C 000:235.346 - 0.260ms returns FALSE
T380C 000:235.350 JLINK_HasError()
T380C 000:237.089 JLINK_IsHalted()
T380C 000:237.389 - 0.300ms returns FALSE
T380C 000:237.393 JLINK_HasError()
T380C 000:239.102 JLINK_IsHalted()
T380C 000:239.411 - 0.309ms returns FALSE
T380C 000:239.418 JLINK_HasError()
T380C 000:241.076 JLINK_IsHalted()
T380C 000:241.348 - 0.272ms returns FALSE
T380C 000:241.359 JLINK_HasError()
T380C 000:243.075 JLINK_IsHalted()
T380C 000:243.475 - 0.399ms returns FALSE
T380C 000:243.488 JLINK_HasError()
T380C 000:245.073 JLINK_IsHalted()
T380C 000:245.334 - 0.261ms returns FALSE
T380C 000:245.339 JLINK_HasError()
T380C 000:247.072 JLINK_IsHalted()
T380C 000:247.323 - 0.251ms returns FALSE
T380C 000:247.329 JLINK_HasError()
T380C 000:249.105 JLINK_IsHalted()
T380C 000:249.421 - 0.316ms returns FALSE
T380C 000:249.426 JLINK_HasError()
T380C 000:251.431 JLINK_IsHalted()
T380C 000:251.737 - 0.306ms returns FALSE
T380C 000:251.741 JLINK_HasError()
T380C 000:253.420 JLINK_IsHalted()
T380C 000:253.740 - 0.319ms returns FALSE
T380C 000:253.749 JLINK_HasError()
T380C 000:255.424 JLINK_IsHalted()
T380C 000:255.793 - 0.368ms returns FALSE
T380C 000:255.804 JLINK_HasError()
T380C 000:257.438 JLINK_IsHalted()
T380C 000:259.948   CPU_ReadMem(2 bytes @ 0x20000000)
T380C 000:260.225 - 2.786ms returns TRUE
T380C 000:260.245 JLINK_ReadReg(R15 (PC))
T380C 000:260.254 - 0.008ms returns 0x20000000
T380C 000:260.257 JLINK_ClrBPEx(BPHandle = 0x00000005)
T380C 000:260.261 - 0.003ms returns 0x00
T380C 000:260.265 JLINK_ReadReg(R0)
T380C 000:260.268 - 0.003ms returns 0x00000000
T380C 000:260.564 JLINK_HasError()
T380C 000:260.577 JLINK_WriteReg(R0, 0x08003000)
T380C 000:260.586 - 0.008ms returns 0
T380C 000:260.591 JLINK_WriteReg(R1, 0x00000800)
T380C 000:260.594 - 0.003ms returns 0
T380C 000:260.597 JLINK_WriteReg(R2, 0x000000FF)
T380C 000:260.600 - 0.003ms returns 0
T380C 000:260.604 JLINK_WriteReg(R3, 0x00000000)
T380C 000:260.607 - 0.003ms returns 0
T380C 000:260.610 JLINK_WriteReg(R4, 0x00000000)
T380C 000:260.613 - 0.002ms returns 0
T380C 000:260.616 JLINK_WriteReg(R5, 0x00000000)
T380C 000:260.619 - 0.002ms returns 0
T380C 000:260.622 JLINK_WriteReg(R6, 0x00000000)
T380C 000:260.625 - 0.002ms returns 0
T380C 000:260.628 JLINK_WriteReg(R7, 0x00000000)
T380C 000:260.631 - 0.002ms returns 0
T380C 000:260.635 JLINK_WriteReg(R8, 0x00000000)
T380C 000:260.638 - 0.003ms returns 0
T380C 000:260.641 JLINK_WriteReg(R9, 0x20000134)
T380C 000:260.644 - 0.002ms returns 0
T380C 000:260.647 JLINK_WriteReg(R10, 0x00000000)
T380C 000:260.650 - 0.002ms returns 0
T380C 000:260.653 JLINK_WriteReg(R11, 0x00000000)
T380C 000:260.656 - 0.002ms returns 0
T380C 000:260.659 JLINK_WriteReg(R12, 0x00000000)
T380C 000:260.662 - 0.002ms returns 0
T380C 000:260.665 JLINK_WriteReg(R13 (SP), 0x20001000)
T380C 000:260.669 - 0.003ms returns 0
T380C 000:260.672 JLINK_WriteReg(R14, 0x20000001)
T380C 000:260.675 - 0.002ms returns 0
T380C 000:260.678 JLINK_WriteReg(R15 (PC), 0x20000020)
T380C 000:260.681 - 0.003ms returns 0
T380C 000:260.685 JLINK_WriteReg(XPSR, 0x01000000)
T380C 000:260.688 - 0.003ms returns 0
T380C 000:260.691 JLINK_WriteReg(MSP, 0x20001000)
T380C 000:260.694 - 0.002ms returns 0
T380C 000:260.698 JLINK_WriteReg(PSP, 0x20001000)
T380C 000:260.700 - 0.002ms returns 0
T380C 000:260.704 JLINK_WriteReg(CFBP, 0x00000000)
T380C 000:260.706 - 0.003ms returns 0
T380C 000:260.710 JLINK_SetBPEx(Addr = 0x20000000, Type = 0xFFFFFFF2)
T380C 000:260.714 - 0.004ms returns 0x00000006
T380C 000:260.717 JLINK_Go()
T380C 000:260.726   CPU_ReadMem(4 bytes @ 0xE0001000)
T380C 000:263.517 - 2.797ms
T380C 000:263.537 JLINK_IsHalted()
T380C 000:266.022   CPU_ReadMem(2 bytes @ 0x20000000)
T380C 000:266.277 - 2.740ms returns TRUE
T380C 000:266.282 JLINK_ReadReg(R15 (PC))
T380C 000:266.286 - 0.003ms returns 0x20000000
T380C 000:266.289 JLINK_ClrBPEx(BPHandle = 0x00000006)
T380C 000:266.293 - 0.003ms returns 0x00
T380C 000:266.296 JLINK_ReadReg(R0)
T380C 000:266.300 - 0.003ms returns 0x00000001
T380C 000:266.304 JLINK_HasError()
T380C 000:266.308 JLINK_WriteReg(R0, 0x08003000)
T380C 000:266.312 - 0.003ms returns 0
T380C 000:266.316 JLINK_WriteReg(R1, 0x00000800)
T380C 000:266.319 - 0.003ms returns 0
T380C 000:266.322 JLINK_WriteReg(R2, 0x000000FF)
T380C 000:266.325 - 0.003ms returns 0
T380C 000:266.329 JLINK_WriteReg(R3, 0x00000000)
T380C 000:266.332 - 0.003ms returns 0
T380C 000:266.336 JLINK_WriteReg(R4, 0x00000000)
T380C 000:266.339 - 0.003ms returns 0
T380C 000:266.342 JLINK_WriteReg(R5, 0x00000000)
T380C 000:266.345 - 0.003ms returns 0
T380C 000:266.349 JLINK_WriteReg(R6, 0x00000000)
T380C 000:266.352 - 0.003ms returns 0
T380C 000:266.355 JLINK_WriteReg(R7, 0x00000000)
T380C 000:266.358 - 0.003ms returns 0
T380C 000:266.362 JLINK_WriteReg(R8, 0x00000000)
T380C 000:266.365 - 0.003ms returns 0
T380C 000:266.369 JLINK_WriteReg(R9, 0x20000134)
T380C 000:266.372 - 0.003ms returns 0
T380C 000:266.375 JLINK_WriteReg(R10, 0x00000000)
T380C 000:266.378 - 0.003ms returns 0
T380C 000:266.382 JLINK_WriteReg(R11, 0x00000000)
T380C 000:266.385 - 0.003ms returns 0
T380C 000:266.389 JLINK_WriteReg(R12, 0x00000000)
T380C 000:266.392 - 0.003ms returns 0
T380C 000:266.395 JLINK_WriteReg(R13 (SP), 0x20001000)
T380C 000:266.399 - 0.003ms returns 0
T380C 000:266.402 JLINK_WriteReg(R14, 0x20000001)
T380C 000:266.405 - 0.003ms returns 0
T380C 000:266.409 JLINK_WriteReg(R15 (PC), 0x200000A8)
T380C 000:266.412 - 0.003ms returns 0
T380C 000:266.416 JLINK_WriteReg(XPSR, 0x01000000)
T380C 000:266.419 - 0.003ms returns 0
T380C 000:266.422 JLINK_WriteReg(MSP, 0x20001000)
T380C 000:266.431 - 0.009ms returns 0
T380C 000:266.435 JLINK_WriteReg(PSP, 0x20001000)
T380C 000:266.475 - 0.039ms returns 0
T380C 000:266.481 JLINK_WriteReg(CFBP, 0x00000000)
T380C 000:266.484 - 0.003ms returns 0
T380C 000:266.488 JLINK_SetBPEx(Addr = 0x20000000, Type = 0xFFFFFFF2)
T380C 000:266.491 - 0.003ms returns 0x00000007
T380C 000:266.495 JLINK_Go()
T380C 000:266.502   CPU_ReadMem(4 bytes @ 0xE0001000)
T380C 000:269.289 - 2.793ms
T380C 000:269.294 JLINK_IsHalted()
T380C 000:269.535 - 0.240ms returns FALSE
T380C 000:269.542 JLINK_HasError()
T380C 000:271.534 JLINK_IsHalted()
T380C 000:271.794 - 0.260ms returns FALSE
T380C 000:271.799 JLINK_HasError()
T380C 000:273.800 JLINK_IsHalted()
T380C 000:274.053 - 0.252ms returns FALSE
T380C 000:274.064 JLINK_HasError()
T380C 000:275.795 JLINK_IsHalted()
T380C 000:276.180 - 0.384ms returns FALSE
T380C 000:276.189 JLINK_HasError()
T380C 000:278.795 JLINK_IsHalted()
T380C 000:279.062 - 0.266ms returns FALSE
T380C 000:279.070 JLINK_HasError()
T380C 000:280.806 JLINK_IsHalted()
T380C 000:281.069 - 0.263ms returns FALSE
T380C 000:281.073 JLINK_HasError()
T380C 000:282.796 JLINK_IsHalted()
T380C 000:283.055 - 0.258ms returns FALSE
T380C 000:283.067 JLINK_HasError()
T380C 000:284.796 JLINK_IsHalted()
T380C 000:285.051 - 0.255ms returns FALSE
T380C 000:285.056 JLINK_HasError()
T380C 000:286.805 JLINK_IsHalted()
T380C 000:287.103 - 0.299ms returns FALSE
T380C 000:287.108 JLINK_HasError()
T380C 000:288.793 JLINK_IsHalted()
T380C 000:289.063 - 0.269ms returns FALSE
T380C 000:289.070 JLINK_HasError()
T380C 000:290.798 JLINK_IsHalted()
T380C 000:291.059 - 0.260ms returns FALSE
T380C 000:291.070 JLINK_HasError()
T380C 000:292.795 JLINK_IsHalted()
T380C 000:293.053 - 0.257ms returns FALSE
T380C 000:293.063 JLINK_HasError()
T380C 000:295.062 JLINK_IsHalted()
T380C 000:295.321 - 0.258ms returns FALSE
T380C 000:295.326 JLINK_HasError()
T380C 000:297.050 JLINK_IsHalted()
T380C 000:297.300 - 0.250ms returns FALSE
T380C 000:297.309 JLINK_HasError()
T380C 000:299.075 JLINK_IsHalted()
T380C 000:299.337 - 0.262ms returns FALSE
T380C 000:299.347 JLINK_HasError()
T380C 000:301.051 JLINK_IsHalted()
T380C 000:301.311 - 0.259ms returns FALSE
T380C 000:301.315 JLINK_HasError()
T380C 000:303.067 JLINK_IsHalted()
T380C 000:303.378 - 0.310ms returns FALSE
T380C 000:303.382 JLINK_HasError()
T380C 000:305.068 JLINK_IsHalted()
T380C 000:305.325 - 0.258ms returns FALSE
T380C 000:305.330 JLINK_HasError()
T380C 000:307.061 JLINK_IsHalted()
T380C 000:309.531   CPU_ReadMem(2 bytes @ 0x20000000)
T380C 000:309.769 - 2.720ms returns TRUE
T380C 000:309.775 JLINK_ReadReg(R15 (PC))
T380C 000:309.781 - 0.005ms returns 0x20000000
T380C 000:309.784 JLINK_ClrBPEx(BPHandle = 0x00000007)
T380C 000:309.788 - 0.003ms returns 0x00
T380C 000:309.792 JLINK_ReadReg(R0)
T380C 000:309.796 - 0.003ms returns 0x00000000
T380C 000:309.821 JLINK_HasError()
T380C 000:309.825 JLINK_WriteReg(R0, 0x08003800)
T380C 000:309.829 - 0.003ms returns 0
T380C 000:309.833 JLINK_WriteReg(R1, 0x00000800)
T380C 000:309.836 - 0.003ms returns 0
T380C 000:309.839 JLINK_WriteReg(R2, 0x000000FF)
T380C 000:309.843 - 0.003ms returns 0
T380C 000:309.846 JLINK_WriteReg(R3, 0x00000000)
T380C 000:309.849 - 0.003ms returns 0
T380C 000:309.853 JLINK_WriteReg(R4, 0x00000000)
T380C 000:309.856 - 0.003ms returns 0
T380C 000:309.859 JLINK_WriteReg(R5, 0x00000000)
T380C 000:309.862 - 0.003ms returns 0
T380C 000:309.866 JLINK_WriteReg(R6, 0x00000000)
T380C 000:309.869 - 0.003ms returns 0
T380C 000:309.872 JLINK_WriteReg(R7, 0x00000000)
T380C 000:309.876 - 0.003ms returns 0
T380C 000:309.879 JLINK_WriteReg(R8, 0x00000000)
T380C 000:309.882 - 0.003ms returns 0
T380C 000:309.886 JLINK_WriteReg(R9, 0x20000134)
T380C 000:309.889 - 0.003ms returns 0
T380C 000:309.893 JLINK_WriteReg(R10, 0x00000000)
T380C 000:309.896 - 0.003ms returns 0
T380C 000:309.899 JLINK_WriteReg(R11, 0x00000000)
T380C 000:309.903 - 0.003ms returns 0
T380C 000:309.906 JLINK_WriteReg(R12, 0x00000000)
T380C 000:309.909 - 0.003ms returns 0
T380C 000:309.913 JLINK_WriteReg(R13 (SP), 0x20001000)
T380C 000:309.919 - 0.005ms returns 0
T380C 000:309.924 JLINK_WriteReg(R14, 0x20000001)
T380C 000:309.927 - 0.003ms returns 0
T380C 000:309.930 JLINK_WriteReg(R15 (PC), 0x20000020)
T380C 000:309.933 - 0.003ms returns 0
T380C 000:309.937 JLINK_WriteReg(XPSR, 0x01000000)
T380C 000:309.940 - 0.003ms returns 0
T380C 000:309.944 JLINK_WriteReg(MSP, 0x20001000)
T380C 000:309.947 - 0.003ms returns 0
T380C 000:309.950 JLINK_WriteReg(PSP, 0x20001000)
T380C 000:309.954 - 0.003ms returns 0
T380C 000:309.957 JLINK_WriteReg(CFBP, 0x00000000)
T380C 000:309.960 - 0.003ms returns 0
T380C 000:309.964 JLINK_SetBPEx(Addr = 0x20000000, Type = 0xFFFFFFF2)
T380C 000:309.968 - 0.004ms returns 0x00000008
T380C 000:309.972 JLINK_Go()
T380C 000:309.979   CPU_ReadMem(4 bytes @ 0xE0001000)
T380C 000:312.687 - 2.714ms
T380C 000:312.697 JLINK_IsHalted()
T380C 000:315.158   CPU_ReadMem(2 bytes @ 0x20000000)
T380C 000:315.396 - 2.698ms returns TRUE
T380C 000:315.400 JLINK_ReadReg(R15 (PC))
T380C 000:315.404 - 0.003ms returns 0x20000000
T380C 000:315.407 JLINK_ClrBPEx(BPHandle = 0x00000008)
T380C 000:315.411 - 0.003ms returns 0x00
T380C 000:315.415 JLINK_ReadReg(R0)
T380C 000:315.418 - 0.003ms returns 0x00000001
T380C 000:315.422 JLINK_HasError()
T380C 000:315.426 JLINK_WriteReg(R0, 0x08003800)
T380C 000:315.429 - 0.003ms returns 0
T380C 000:315.433 JLINK_WriteReg(R1, 0x00000800)
T380C 000:315.436 - 0.003ms returns 0
T380C 000:315.439 JLINK_WriteReg(R2, 0x000000FF)
T380C 000:315.442 - 0.003ms returns 0
T380C 000:315.446 JLINK_WriteReg(R3, 0x00000000)
T380C 000:315.449 - 0.003ms returns 0
T380C 000:315.452 JLINK_WriteReg(R4, 0x00000000)
T380C 000:315.455 - 0.003ms returns 0
T380C 000:315.459 JLINK_WriteReg(R5, 0x00000000)
T380C 000:315.462 - 0.003ms returns 0
T380C 000:315.466 JLINK_WriteReg(R6, 0x00000000)
T380C 000:315.469 - 0.003ms returns 0
T380C 000:315.472 JLINK_WriteReg(R7, 0x00000000)
T380C 000:315.475 - 0.003ms returns 0
T380C 000:315.479 JLINK_WriteReg(R8, 0x00000000)
T380C 000:315.482 - 0.003ms returns 0
T380C 000:315.485 JLINK_WriteReg(R9, 0x20000134)
T380C 000:315.488 - 0.003ms returns 0
T380C 000:315.492 JLINK_WriteReg(R10, 0x00000000)
T380C 000:315.495 - 0.003ms returns 0
T380C 000:315.498 JLINK_WriteReg(R11, 0x00000000)
T380C 000:315.502 - 0.003ms returns 0
T380C 000:315.505 JLINK_WriteReg(R12, 0x00000000)
T380C 000:315.508 - 0.003ms returns 0
T380C 000:315.512 JLINK_WriteReg(R13 (SP), 0x20001000)
T380C 000:315.515 - 0.003ms returns 0
T380C 000:315.518 JLINK_WriteReg(R14, 0x20000001)
T380C 000:315.522 - 0.003ms returns 0
T380C 000:315.525 JLINK_WriteReg(R15 (PC), 0x200000A8)
T380C 000:315.528 - 0.003ms returns 0
T380C 000:315.532 JLINK_WriteReg(XPSR, 0x01000000)
T380C 000:315.535 - 0.003ms returns 0
T380C 000:315.539 JLINK_WriteReg(MSP, 0x20001000)
T380C 000:315.542 - 0.003ms returns 0
T380C 000:315.545 JLINK_WriteReg(PSP, 0x20001000)
T380C 000:315.549 - 0.003ms returns 0
T380C 000:315.552 JLINK_WriteReg(CFBP, 0x00000000)
T380C 000:315.555 - 0.003ms returns 0
T380C 000:315.559 JLINK_SetBPEx(Addr = 0x20000000, Type = 0xFFFFFFF2)
T380C 000:315.562 - 0.003ms returns 0x00000009
T380C 000:315.566 JLINK_Go()
T380C 000:315.571   CPU_ReadMem(4 bytes @ 0xE0001000)
T380C 000:318.339 - 2.770ms
T380C 000:318.364 JLINK_IsHalted()
T380C 000:318.601 - 0.236ms returns FALSE
T380C 000:318.605 JLINK_HasError()
T380C 000:319.927 JLINK_IsHalted()
T380C 000:320.209 - 0.283ms returns FALSE
T380C 000:320.214 JLINK_HasError()
T380C 000:322.228 JLINK_IsHalted()
T380C 000:322.483 - 0.255ms returns FALSE
T380C 000:322.487 JLINK_HasError()
T380C 000:324.212 JLINK_IsHalted()
T380C 000:324.471 - 0.258ms returns FALSE
T380C 000:324.481 JLINK_HasError()
T380C 000:326.226 JLINK_IsHalted()
T380C 000:326.490 - 0.265ms returns FALSE
T380C 000:326.494 JLINK_HasError()
T380C 000:328.260 JLINK_IsHalted()
T380C 000:328.496 - 0.235ms returns FALSE
T380C 000:328.520 JLINK_HasError()
T380C 000:330.234 JLINK_IsHalted()
T380C 000:330.542 - 0.308ms returns FALSE
T380C 000:330.546 JLINK_HasError()
T380C 000:332.545 JLINK_IsHalted()
T380C 000:332.869 - 0.323ms returns FALSE
T380C 000:332.876 JLINK_HasError()
T380C 000:334.552 JLINK_IsHalted()
T380C 000:334.982 - 0.428ms returns FALSE
T380C 000:334.998 JLINK_HasError()
T380C 000:336.552 JLINK_IsHalted()
T380C 000:336.824 - 0.272ms returns FALSE
T380C 000:336.828 JLINK_HasError()
T380C 000:338.542 JLINK_IsHalted()
T380C 000:338.845 - 0.302ms returns FALSE
T380C 000:338.856 JLINK_HasError()
T380C 000:340.553 JLINK_IsHalted()
T380C 000:340.822 - 0.269ms returns FALSE
T380C 000:340.829 JLINK_HasError()
T380C 000:342.549 JLINK_IsHalted()
T380C 000:342.825 - 0.275ms returns FALSE
T380C 000:342.837 JLINK_HasError()
T380C 000:344.564 JLINK_IsHalted()
T380C 000:344.871 - 0.308ms returns FALSE
T380C 000:344.879 JLINK_HasError()
T380C 000:346.544 JLINK_IsHalted()
T380C 000:346.845 - 0.301ms returns FALSE
T380C 000:346.854 JLINK_HasError()
T380C 000:348.567 JLINK_IsHalted()
T380C 000:348.844 - 0.278ms returns FALSE
T380C 000:348.849 JLINK_HasError()
T380C 000:350.545 JLINK_IsHalted()
T380C 000:350.874 - 0.329ms returns FALSE
T380C 000:350.885 JLINK_HasError()
T380C 000:352.546 JLINK_IsHalted()
T380C 000:352.820 - 0.273ms returns FALSE
T380C 000:352.827 JLINK_HasError()
T380C 000:354.542 JLINK_IsHalted()
T380C 000:354.798 - 0.254ms returns FALSE
T380C 000:354.809 JLINK_HasError()
T380C 000:356.544 JLINK_IsHalted()
T380C 000:358.979   CPU_ReadMem(2 bytes @ 0x20000000)
T380C 000:359.268 - 2.723ms returns TRUE
T380C 000:359.281 JLINK_ReadReg(R15 (PC))
T380C 000:359.289 - 0.007ms returns 0x20000000
T380C 000:359.294 JLINK_ClrBPEx(BPHandle = 0x00000009)
T380C 000:359.298 - 0.004ms returns 0x00
T380C 000:359.303 JLINK_ReadReg(R0)
T380C 000:359.308 - 0.004ms returns 0x00000000
T380C 000:359.335 JLINK_HasError()
T380C 000:359.340 JLINK_WriteReg(R0, 0x08004000)
T380C 000:359.345 - 0.005ms returns 0
T380C 000:359.349 JLINK_WriteReg(R1, 0x00000800)
T380C 000:359.352 - 0.003ms returns 0
T380C 000:359.356 JLINK_WriteReg(R2, 0x000000FF)
T380C 000:359.359 - 0.003ms returns 0
T380C 000:359.362 JLINK_WriteReg(R3, 0x00000000)
T380C 000:359.365 - 0.003ms returns 0
T380C 000:359.369 JLINK_WriteReg(R4, 0x00000000)
T380C 000:359.372 - 0.003ms returns 0
T380C 000:359.376 JLINK_WriteReg(R5, 0x00000000)
T380C 000:359.379 - 0.003ms returns 0
T380C 000:359.382 JLINK_WriteReg(R6, 0x00000000)
T380C 000:359.385 - 0.003ms returns 0
T380C 000:359.389 JLINK_WriteReg(R7, 0x00000000)
T380C 000:359.392 - 0.003ms returns 0
T380C 000:359.396 JLINK_WriteReg(R8, 0x00000000)
T380C 000:359.399 - 0.003ms returns 0
T380C 000:359.402 JLINK_WriteReg(R9, 0x20000134)
T380C 000:359.406 - 0.003ms returns 0
T380C 000:359.409 JLINK_WriteReg(R10, 0x00000000)
T380C 000:359.412 - 0.003ms returns 0
T380C 000:359.416 JLINK_WriteReg(R11, 0x00000000)
T380C 000:359.419 - 0.003ms returns 0
T380C 000:359.422 JLINK_WriteReg(R12, 0x00000000)
T380C 000:359.425 - 0.003ms returns 0
T380C 000:359.429 JLINK_WriteReg(R13 (SP), 0x20001000)
T380C 000:359.432 - 0.003ms returns 0
T380C 000:359.436 JLINK_WriteReg(R14, 0x20000001)
T380C 000:359.439 - 0.003ms returns 0
T380C 000:359.443 JLINK_WriteReg(R15 (PC), 0x20000020)
T380C 000:359.446 - 0.003ms returns 0
T380C 000:359.449 JLINK_WriteReg(XPSR, 0x01000000)
T380C 000:359.452 - 0.003ms returns 0
T380C 000:359.456 JLINK_WriteReg(MSP, 0x20001000)
T380C 000:359.459 - 0.003ms returns 0
T380C 000:359.462 JLINK_WriteReg(PSP, 0x20001000)
T380C 000:359.465 - 0.003ms returns 0
T380C 000:359.469 JLINK_WriteReg(CFBP, 0x00000000)
T380C 000:359.472 - 0.003ms returns 0
T380C 000:359.476 JLINK_SetBPEx(Addr = 0x20000000, Type = 0xFFFFFFF2)
T380C 000:359.480 - 0.004ms returns 0x0000000A
T380C 000:359.484 JLINK_Go()
T380C 000:359.492   CPU_ReadMem(4 bytes @ 0xE0001000)
T380C 000:362.238 - 2.753ms
T380C 000:362.245 JLINK_IsHalted()
T380C 000:364.724   CPU_ReadMem(2 bytes @ 0x20000000)
T380C 000:365.002 - 2.756ms returns TRUE
T380C 000:365.007 JLINK_ReadReg(R15 (PC))
T380C 000:365.011 - 0.003ms returns 0x20000000
T380C 000:365.016 JLINK_ClrBPEx(BPHandle = 0x0000000A)
T380C 000:365.021 - 0.004ms returns 0x00
T380C 000:365.025 JLINK_ReadReg(R0)
T380C 000:365.028 - 0.003ms returns 0x00000001
T380C 000:365.031 JLINK_HasError()
T380C 000:365.035 JLINK_WriteReg(R0, 0x08004000)
T380C 000:365.038 - 0.003ms returns 0
T380C 000:365.042 JLINK_WriteReg(R1, 0x00000800)
T380C 000:365.045 - 0.003ms returns 0
T380C 000:365.048 JLINK_WriteReg(R2, 0x000000FF)
T380C 000:365.052 - 0.003ms returns 0
T380C 000:365.055 JLINK_WriteReg(R3, 0x00000000)
T380C 000:365.058 - 0.003ms returns 0
T380C 000:365.062 JLINK_WriteReg(R4, 0x00000000)
T380C 000:365.065 - 0.003ms returns 0
T380C 000:365.068 JLINK_WriteReg(R5, 0x00000000)
T380C 000:365.071 - 0.003ms returns 0
T380C 000:365.075 JLINK_WriteReg(R6, 0x00000000)
T380C 000:365.078 - 0.003ms returns 0
T380C 000:365.081 JLINK_WriteReg(R7, 0x00000000)
T380C 000:365.084 - 0.003ms returns 0
T380C 000:365.088 JLINK_WriteReg(R8, 0x00000000)
T380C 000:365.091 - 0.003ms returns 0
T380C 000:365.094 JLINK_WriteReg(R9, 0x20000134)
T380C 000:365.098 - 0.003ms returns 0
T380C 000:365.101 JLINK_WriteReg(R10, 0x00000000)
T380C 000:365.104 - 0.003ms returns 0
T380C 000:365.108 JLINK_WriteReg(R11, 0x00000000)
T380C 000:365.111 - 0.003ms returns 0
T380C 000:365.114 JLINK_WriteReg(R12, 0x00000000)
T380C 000:365.117 - 0.003ms returns 0
T380C 000:365.121 JLINK_WriteReg(R13 (SP), 0x20001000)
T380C 000:365.124 - 0.003ms returns 0
T380C 000:365.127 JLINK_WriteReg(R14, 0x20000001)
T380C 000:365.131 - 0.003ms returns 0
T380C 000:365.134 JLINK_WriteReg(R15 (PC), 0x200000A8)
T380C 000:365.137 - 0.003ms returns 0
T380C 000:365.142 JLINK_WriteReg(XPSR, 0x01000000)
T380C 000:365.145 - 0.003ms returns 0
T380C 000:365.148 JLINK_WriteReg(MSP, 0x20001000)
T380C 000:365.151 - 0.003ms returns 0
T380C 000:365.156 JLINK_WriteReg(PSP, 0x20001000)
T380C 000:365.160 - 0.003ms returns 0
T380C 000:365.164 JLINK_WriteReg(CFBP, 0x00000000)
T380C 000:365.169 - 0.005ms returns 0
T380C 000:365.174 JLINK_SetBPEx(Addr = 0x20000000, Type = 0xFFFFFFF2)
T380C 000:365.179 - 0.005ms returns 0x0000000B
T380C 000:365.183 JLINK_Go()
T380C 000:365.190   CPU_ReadMem(4 bytes @ 0xE0001000)
T380C 000:367.869 - 2.685ms
T380C 000:367.874 JLINK_IsHalted()
T380C 000:368.144 - 0.269ms returns FALSE
T380C 000:368.148 JLINK_HasError()
T380C 000:369.402 JLINK_IsHalted()
T380C 000:369.738 - 0.335ms returns FALSE
T380C 000:369.742 JLINK_HasError()
T380C 000:371.752 JLINK_IsHalted()
T380C 000:372.017 - 0.266ms returns FALSE
T380C 000:372.022 JLINK_HasError()
T380C 000:373.742 JLINK_IsHalted()
T380C 000:373.996 - 0.253ms returns FALSE
T380C 000:374.006 JLINK_HasError()
T380C 000:375.745 JLINK_IsHalted()
T380C 000:375.995 - 0.249ms returns FALSE
T380C 000:376.000 JLINK_HasError()
T380C 000:377.752 JLINK_IsHalted()
T380C 000:378.020 - 0.268ms returns FALSE
T380C 000:378.024 JLINK_HasError()
T380C 000:379.736 JLINK_IsHalted()
T380C 000:379.985 - 0.248ms returns FALSE
T380C 000:379.992 JLINK_HasError()
T380C 000:381.740 JLINK_IsHalted()
T380C 000:381.994 - 0.254ms returns FALSE
T380C 000:382.002 JLINK_HasError()
T380C 000:383.736 JLINK_IsHalted()
T380C 000:383.984 - 0.248ms returns FALSE
T380C 000:383.989 JLINK_HasError()
T380C 000:385.741 JLINK_IsHalted()
T380C 000:385.998 - 0.256ms returns FALSE
T380C 000:386.006 JLINK_HasError()
T380C 000:387.738 JLINK_IsHalted()
T380C 000:387.989 - 0.251ms returns FALSE
T380C 000:387.996 JLINK_HasError()
T380C 000:389.737 JLINK_IsHalted()
T380C 000:390.016 - 0.278ms returns FALSE
T380C 000:390.023 JLINK_HasError()
T380C 000:391.753 JLINK_IsHalted()
T380C 000:392.369 - 0.616ms returns FALSE
T380C 000:392.377 JLINK_HasError()
T380C 000:393.740 JLINK_IsHalted()
T380C 000:393.992 - 0.251ms returns FALSE
T380C 000:394.002 JLINK_HasError()
T380C 000:395.792 JLINK_IsHalted()
T380C 000:396.067 - 0.276ms returns FALSE
T380C 000:396.078 JLINK_HasError()
T380C 000:397.739 JLINK_IsHalted()
T380C 000:397.992 - 0.252ms returns FALSE
T380C 000:398.001 JLINK_HasError()
T380C 000:399.747 JLINK_IsHalted()
T380C 000:399.994 - 0.247ms returns FALSE
T380C 000:400.002 JLINK_HasError()
T380C 000:401.748 JLINK_IsHalted()
T380C 000:402.013 - 0.266ms returns FALSE
T380C 000:402.018 JLINK_HasError()
T380C 000:403.773 JLINK_IsHalted()
T380C 000:404.025 - 0.251ms returns FALSE
T380C 000:404.035 JLINK_HasError()
T380C 000:405.791 JLINK_IsHalted()
T380C 000:406.061 - 0.270ms returns FALSE
T380C 000:406.071 JLINK_HasError()
T380C 000:407.762 JLINK_IsHalted()
T380C 000:408.058 - 0.296ms returns FALSE
T380C 000:408.063 JLINK_HasError()
T380C 000:409.762 JLINK_IsHalted()
T380C 000:412.222   CPU_ReadMem(2 bytes @ 0x20000000)
T380C 000:412.481 - 2.720ms returns TRUE
T380C 000:412.487 JLINK_ReadReg(R15 (PC))
T380C 000:412.492 - 0.005ms returns 0x20000000
T380C 000:412.496 JLINK_ClrBPEx(BPHandle = 0x0000000B)
T380C 000:412.500 - 0.003ms returns 0x00
T380C 000:412.504 JLINK_ReadReg(R0)
T380C 000:412.507 - 0.003ms returns 0x00000000
T380C 000:412.529 JLINK_HasError()
T380C 000:412.534 JLINK_WriteReg(R0, 0x08004800)
T380C 000:412.537 - 0.003ms returns 0
T380C 000:412.541 JLINK_WriteReg(R1, 0x00000800)
T380C 000:412.544 - 0.003ms returns 0
T380C 000:412.548 JLINK_WriteReg(R2, 0x000000FF)
T380C 000:412.551 - 0.003ms returns 0
T380C 000:412.554 JLINK_WriteReg(R3, 0x00000000)
T380C 000:412.558 - 0.003ms returns 0
T380C 000:412.561 JLINK_WriteReg(R4, 0x00000000)
T380C 000:412.564 - 0.003ms returns 0
T380C 000:412.568 JLINK_WriteReg(R5, 0x00000000)
T380C 000:412.571 - 0.003ms returns 0
T380C 000:412.574 JLINK_WriteReg(R6, 0x00000000)
T380C 000:412.577 - 0.003ms returns 0
T380C 000:412.581 JLINK_WriteReg(R7, 0x00000000)
T380C 000:412.584 - 0.003ms returns 0
T380C 000:412.588 JLINK_WriteReg(R8, 0x00000000)
T380C 000:412.591 - 0.003ms returns 0
T380C 000:412.594 JLINK_WriteReg(R9, 0x20000134)
T380C 000:412.597 - 0.003ms returns 0
T380C 000:412.601 JLINK_WriteReg(R10, 0x00000000)
